Element, I1_1, Ang1_1, I1_2, Ang1_2, I1_3, Ang1_3, I1_4, Ang1_4, Iresid1, AngResid1, I2_1, Ang2_1, I2_2, Ang2_2, I2_3, Ang2_3, I2_4, Ang2_4, Iresid2, AngResid2
Vsource.SOURCE,    132.351,   153.36,     132.35,    33.36,     132.35,   -86.64,          0,     0.00, 0.00532513,   149.12,    132.351,   -26.64,     132.35,  -146.64,     132.35,    93.36,          0,     0.00, 0.00532513,   -30.88
Transformer.T32,    1.58289,   -26.57,    1.58289,  -146.57,    1.58289,    93.43,          0,     0.00, 1.3483E-012,    38.26,    97.0766,   125.49,    97.0764,     5.49,    97.0761,  -114.51, 0.000802648,  -100.65, 1.46942E-011,    62.84
Transformer.T33,    1.58363,   -26.58,    1.58363,  -146.58,    1.58363,    93.42,          0,     0.00, 1.45889E-012,    37.68,    97.1241,   125.49,     97.124,     5.49,    97.1236,  -114.51, 0.000872165,  -100.69, 1.55152E-011,    65.31
Transformer.T34,    2.63983,   -26.58,    2.63983,  -146.58,    2.63983,    93.42,          0,     0.00, 2.47131E-012,    38.29,    161.901,   125.48,    161.901,     5.48,    161.901,  -114.52, 0.00147815,  -100.70, 2.66445E-011,    62.56
Transformer.T35,    1.58785,   -26.59,    1.58785,  -146.59,    1.58785,    93.41,          0,     0.00, 2.10223E-012,    37.41,    97.3957,   125.46,    97.3955,     5.46,     97.395,  -114.54, 0.00126969,  -100.82, 2.29301E-011,    63.18
Transformer.T36,    1.59018,   -26.60,    1.59018,  -146.60,    1.59018,    93.40,          0,     0.00, 2.47908E-012,    36.90,    97.5452,   125.44,    97.5449,     5.44,    97.5443,  -114.56,  0.0014894,  -100.87, 2.67432E-011,    63.22
Transformer.T37,    1.59018,   -26.60,    1.59018,  -146.60,    1.59018,    93.40,          0,     0.00, 2.47908E-012,    36.90,    97.5452,   125.44,    97.5449,     5.44,    97.5443,  -114.56,  0.0014894,  -100.87, 2.67432E-011,    63.22
Transformer.T38,    2.65436,   -26.62,    2.65436,  -146.62,    2.65436,    93.38,          0,     0.00, 4.69671E-012,    36.70,    162.836,   125.42,    162.835,     5.42,    162.834,  -114.58, 0.00284911,  -100.93, 5.19617E-011,    63.77
Transformer.T39,    1.59546,   -26.63,    1.59546,  -146.63,    1.59546,    93.37,          0,     0.00, 3.27214E-012,    36.43,    97.8847,   125.41,    97.8844,     5.41,    97.8835,  -114.59, 0.00199052,  -100.98, 3.58998E-011,    62.46
Transformer.T40,     1.5955,   -26.63,     1.5955,  -146.63,     1.5955,    93.37,          0,     0.00, 3.27214E-012,    36.43,    97.8872,   125.41,    97.8869,     5.41,    97.8861,  -114.59, 0.00199434,  -100.98, 3.64545E-011,    63.12
Transformer.T41,    1.59731,   -26.64,    1.59731,  -146.64,    1.59731,    93.36,          0,     0.00, 3.54642E-012,    36.45,    98.0037,   125.39,    98.0034,     5.39,    98.0025,  -114.61, 0.00216719,  -101.01, 3.94028E-011,    63.43
Transformer.T42,    2.66242,   -26.64,    2.66242,  -146.64,    2.66242,    93.36,          0,     0.00, 5.91476E-012,    36.40,    163.354,   125.38,    163.353,     5.39,    163.352,  -114.62,  0.0036161,  -101.02, 6.57263E-011,    61.48
Transformer.T43,    1.59886,   -26.64,    1.59886,  -146.64,    1.59886,    93.36,          0,     0.00, 3.78562E-012,    36.28,     98.103,   125.38,    98.1027,     5.38,    98.1017,  -114.62, 0.00231435,  -101.04, 4.20491E-011,    62.81
Transformer.T44,    1.59938,   -26.64,    1.59938,  -146.64,    1.59938,    93.36,          0,     0.00, 3.86058E-012,    36.28,    98.1367,   125.38,    98.1363,     5.38,    98.1354,  -114.62, 0.00236435,  -101.04, 4.23527E-011,    63.02
Transformer.T45,    1.59998,   -26.65,    1.59998,  -146.65,    1.59998,    93.35,          0,     0.00, 3.94443E-012,    36.28,     98.175,   125.37,    98.1746,     5.38,    98.1736,  -114.63, 0.00242139,  -101.05, 4.42394E-011,    62.45
Transformer.T46,    1.60155,   -26.65,    1.60155,  -146.65,    1.60155,    93.35,          0,     0.00, 4.19332E-012,    36.07,    98.2763,   125.36,    98.2759,     5.36,    98.2748,  -114.64, 0.00257205,  -101.08, 4.66742E-011,    63.06
Transformer.T47,    2.66972,   -26.66,    2.66972,  -146.66,    2.66972,    93.34,          0,     0.00, 7.03053E-012,    36.24,    163.822,   125.35,    163.822,     5.35,     163.82,  -114.65, 0.00431304,  -101.09, 7.83991E-011,    63.29
Transformer.T48,    1.60162,   -26.65,    1.60162,  -146.65,    1.60162,    93.35,          0,     0.00, 4.19025E-012,    36.35,    98.2807,   125.36,    98.2803,     5.36,    98.2792,  -114.64, 0.00257879,  -101.08, 4.70298E-011,    63.13
Transformer.T49,    1.60362,   -26.66,    1.60362,  -146.66,    1.60362,    93.34,          0,     0.00, 4.4945E-012,    36.19,    98.4092,   125.35,    98.4088,     5.35,    98.4076,  -114.65, 0.00277025,  -101.11, 5.06902E-011,    63.21
Transformer.T50,    1.60364,   -26.66,    1.60364,  -146.66,    1.60364,    93.34,          0,     0.00, 4.50415E-012,    36.13,    98.4102,   125.35,    98.4098,     5.35,    98.4086,  -114.65, 0.00277182,  -101.11, 5.05887E-011,    63.15
Transformer.T51,    1.60403,   -26.67,    1.60403,  -146.67,    1.60403,    93.33,          0,     0.00, 4.57101E-012,    36.07,    98.4355,   125.35,    98.4351,     5.35,    98.4339,  -114.65, 0.00280938,  -101.12, 5.04406E-011,    62.63
Transformer.T52,    1.60598,   -26.67,    1.60598,  -146.67,    1.60598,    93.33,          0,     0.00, 4.86983E-012,    36.07,    98.5606,   125.33,    98.5602,     5.33,    98.5589,  -114.67, 0.00299626,  -101.14, 5.44555E-011,    62.79
Transformer.T53,    1.60786,   -26.68,    1.60786,  -146.68,    1.60786,    93.32,          0,     0.00, 5.13524E-012,    35.82,    98.6819,   125.32,    98.6814,     5.32,    98.6801,  -114.68, 0.00317773,  -101.17, 5.70532E-011,    62.46
Transformer.T54,    2.68165,   -26.69,    2.68165,  -146.69,    2.68165,    93.31,          0,     0.00, 8.83074E-012,    35.80,    164.589,   125.30,    164.588,     5.30,    164.586,  -114.70, 0.00545818,  -101.19, 9.96522E-011,    63.73
Transformer.T55,    2.68317,   -26.70,    2.68317,  -146.70,    2.68317,    93.30,          0,     0.00, 9.04133E-012,    35.73,    164.687,   125.30,    164.686,     5.30,    164.684,  -114.70,  0.0056046,  -101.21, 1.01078E-010,    62.97
Transformer.T56,    2.68453,   -26.70,    2.68453,  -146.70,    2.68453,    93.30,          0,     0.00, 9.24661E-012,    35.76,    164.774,   125.29,    164.773,     5.29,    164.771,  -114.71, 0.00573578,  -101.22, 1.04133E-010,    62.71
Transformer.T57,    2.68967,   -26.72,    2.68967,  -146.72,    2.68967,    93.28,          0,     0.00, 1.00011E-011,    35.63,    165.105,   125.27,    165.104,     5.27,    165.101,  -114.73, 0.00623225,  -101.26, 1.1309E-010,    62.46
Transformer.T58,    2.69184,   -26.72,    2.69184,  -146.72,    2.69184,    93.28,          0,     0.00, 1.03261E-011,    35.58,    165.244,   125.26,    165.243,     5.26,     165.24,  -114.74, 0.00644164,  -101.28, 1.17149E-010,    62.74
Transformer.T59,    2.69321,   -26.73,    2.69321,  -146.73,    2.69321,    93.27,          0,     0.00, 1.05326E-011,    35.49,    165.331,   125.26,     165.33,     5.26,    165.328,  -114.74, 0.00657421,  -101.29, 1.19594E-010,    62.61
Transformer.T60,    2.69444,   -26.73,    2.69444,  -146.73,    2.69444,    93.27,          0,     0.00, 1.07085E-011,    35.56,    165.411,   125.25,     165.41,     5.25,    165.407,  -114.75, 0.00669381,  -101.30, 1.22129E-010,    62.86
Transformer.T61,    2.69575,   -26.73,    2.69575,  -146.73,    2.69575,    93.27,          0,     0.00, 1.09031E-011,    35.45,    165.495,   125.24,    165.494,     5.25,    165.491,  -114.75, 0.00682085,  -101.31, 1.23751E-010,    63.25
Transformer.T62,    2.69629,   -26.73,    2.69629,  -146.73,    2.69629,    93.27,          0,     0.00, 1.09948E-011,    35.61,     165.53,   125.24,    165.529,     5.24,    165.526,  -114.76,  0.0068725,  -101.31, 1.23956E-010,    63.06
Transformer.T82,    1.61859,   -26.74,    1.61863,  -146.74,    1.61862,    93.26,          0,     0.00, 7.01369E-012,    35.61,    99.3728,   125.23,    99.3735,     5.23,    99.3754,  -114.77, 0.000228105,    78.66, 4.16317E-012,  -124.99
Transformer.T63,    1.61848,   -26.74,    1.61852,  -146.74,    1.61851,    93.26,          0,     0.00, 7.04239E-012,    35.64,     99.366,   125.23,    99.3667,     5.23,    99.3687,  -114.77, 0.000228586,    78.66, 4.88192E-012,  -117.76
Transformer.T64,    1.61852,   -26.74,    1.61856,  -146.74,    1.61855,    93.26,          0,     0.00, 7.01926E-012,    35.52,    99.3684,   125.23,    99.3691,     5.23,    99.3711,  -114.77, 0.000228421,    78.66, 4.78026E-012,  -115.35
Transformer.T65,    1.61844,   -26.74,    1.61848,  -146.74,    1.61847,    93.26,          0,     0.00, 7.04094E-012,    35.52,    99.3636,   125.23,    99.3643,     5.23,    99.3662,  -114.77, 0.000228767,    78.66, 4.32907E-012,  -119.93
Transformer.T66,    1.61835,   -26.74,    1.61839,  -146.74,    1.61838,    93.26,          0,     0.00, 7.05271E-012,    35.51,    99.3584,   125.23,    99.3591,     5.23,     99.361,  -114.77, 0.000229138,    78.66, 3.71184E-012,  -117.35
Transformer.T67,     1.6183,   -26.74,    1.61835,  -146.74,    1.61834,    93.26,          0,     0.00, 7.05148E-012,    35.44,    99.3554,   125.23,    99.3562,     5.23,    99.3581,  -114.77, 0.000229348,    78.66, 4.62916E-012,  -114.68
Transformer.T68,    1.61868,   -26.74,    1.61873,  -146.74,    1.61871,    93.26,          0,     0.00, 7.00522E-012,    35.46,    99.3788,   125.23,    99.3795,     5.23,    99.3814,  -114.77, 0.000227679,    78.66, 4.4148E-012,  -124.51
Transformer.T69,    2.69776,   -26.75,    2.69783,  -146.75,    2.69781,    93.25,          0,     0.00, 1.16935E-011,    35.43,    165.628,   125.22,    165.629,     5.23,    165.632,  -114.78, 0.000380458,    78.65, 7.88302E-012,  -123.23
Transformer.T70,    2.69698,   -26.75,    2.69705,  -146.75,    2.69703,    93.25,          0,     0.00, 1.18137E-011,    35.42,     165.58,   125.22,    165.581,     5.22,    165.584,  -114.78, 0.00038389,    78.65, 7.69384E-012,  -124.16
Transformer.T71,    2.69687,   -26.75,    2.69694,  -146.75,    2.69692,    93.25,          0,     0.00, 1.18199E-011,    35.46,    165.573,   125.22,    165.574,     5.22,    165.577,  -114.78, 0.000384376,    78.64, 6.97485E-012,  -109.03
Transformer.T72,    2.69645,   -26.75,    2.69652,  -146.75,     2.6965,    93.25,          0,     0.00, 1.1881E-011,    35.46,    165.547,   125.22,    165.549,     5.22,    165.552,  -114.78, 0.000386207,    78.64, 6.62902E-012,  -112.17
Transformer.T73,    1.61752,   -26.74,    1.61757,  -146.74,    1.61756,    93.25,          0,     0.00, 7.1597E-012,    35.39,    99.3075,   125.23,    99.3082,     5.23,    99.3102,  -114.77, 0.000232786,    78.65, 3.82164E-012,  -112.75
Transformer.T74,    2.69601,   -26.75,    2.69608,  -146.75,    2.69606,    93.25,          0,     0.00, 1.19438E-011,    35.41,     165.52,   125.22,    165.521,     5.22,    165.525,  -114.78, 0.000388157,    78.64, 6.62902E-012,  -120.96
Transformer.T75,    1.61757,   -26.74,    1.61761,  -146.74,     1.6176,    93.26,          0,     0.00, 7.16718E-012,    35.27,    99.3101,   125.23,    99.3108,     5.23,    99.3128,  -114.77, 0.000232597,    78.65, 3.77913E-012,  -111.16
Transformer.T76,    2.69599,   -26.75,    2.69606,  -146.75,    2.69604,    93.25,          0,     0.00, 1.19476E-011,    35.38,    165.519,   125.22,     165.52,     5.22,    165.523,  -114.78, 0.000388248,    78.64, 8.13477E-012,  -116.57
Transformer.T77,    1.61749,   -26.74,    1.61753,  -146.74,    1.61752,    93.25,          0,     0.00, 7.16279E-012,    35.42,    99.3052,   125.23,    99.3059,     5.23,    99.3079,  -114.77, 0.000232954,    78.65, 4.27348E-012,  -118.61
Transformer.T78,    4.49104,   -26.77,    4.49115,  -146.76,    4.49112,    93.23,          0,     0.00, 2.02749E-011,    35.33,    275.723,   125.21,    275.725,     5.21,    275.731,  -114.79, 0.000658461,    78.63, 1.38306E-011,  -117.41
Transformer.T79,    2.69448,   -26.76,    2.69456,  -146.76,    2.69454,    93.24,          0,     0.00, 1.21446E-011,    35.35,    165.426,   125.21,    165.427,     5.22,    165.431,  -114.78, 0.000394903,    78.63, 8.38821E-012,  -122.83
Transformer.T80,    4.49053,   -26.77,    4.49065,  -146.77,    4.49061,    93.23,          0,     0.00, 2.03186E-011,    35.36,    275.692,   125.21,    275.694,     5.21,      275.7,  -114.79,  0.0006607,    78.62, 1.23705E-011,  -126.03
Transformer.T81,    2.69397,   -26.76,    2.69404,  -146.76,    2.69402,    93.24,          0,     0.00, 1.22139E-011,    35.41,    165.394,   125.21,    165.396,     5.21,    165.399,  -114.79,  0.0003972,    78.63, 7.62634E-012,  -116.57
Transformer.T1000,    2.69459,   -26.76,    2.69467,  -146.76,    2.69465,    93.24,          0,     0.00, 1.21323E-011,    35.27,    165.433,   125.22,    165.434,     5.22,    165.438,  -114.78, 0.000394418,    78.64, 6.18523E-012,  -126.03
Transformer.T10001,    2.69289,   -26.76,    2.69296,  -146.76,    2.69294,    93.24,          0,     0.00, 1.23594E-011,    35.33,    165.328,   125.21,    165.329,     5.21,    165.333,  -114.79, 0.000401984,    78.63, 7.22605E-012,  -114.15
Transformer.T10002,     2.6921,   -26.76,    2.69217,  -146.76,    2.69215,    93.24,          0,     0.00, 1.24502E-011,    35.36,    165.279,   125.21,    165.281,     5.21,    165.284,  -114.79, 0.000405554,    78.64, 7.5685E-012,  -122.74
Transformer.T10003,    1.37032,   -28.00,    1.37032,  -148.00,    1.37032,    92.00,          0,     0.00, 1.25076E-011,    35.39,    82.2316,   125.91,     82.231,     5.92,    82.2294,  -114.09, 0.00385441,   -99.95, 6.9965E-011,    64.18
Transformer.T10004,    1.37032,   -28.00,    1.37032,  -148.00,    1.37032,    92.00,          0,     0.00, 1.25076E-011,    35.39,    82.2316,   125.91,     82.231,     5.92,    82.2294,  -114.09, 0.00385441,   -99.95, 6.9965E-011,    64.18
Transformer.T10005,    2.69163,   -26.76,     2.6917,  -146.76,    2.69168,    93.23,          0,     0.00, 1.25209E-011,    35.31,     165.25,   125.21,    165.252,     5.21,    165.255,  -114.79, 0.000407636,    78.64, 7.12155E-012,  -106.70
Transformer.T10006,    2.69158,   -26.76,    2.69165,  -146.76,    2.69163,    93.23,          0,     0.00, 1.2527E-011,    35.35,    165.247,   125.21,    165.249,     5.21,    165.252,  -114.79, 0.00040786,    78.64, 6.71426E-012,  -118.30
Transformer.T10009,    2.69168,   -26.76,    2.69175,  -146.76,    2.69173,    93.23,          0,     0.00, 1.25171E-011,    35.34,    165.254,   125.21,    165.255,     5.21,    165.258,  -114.79, 0.000407425,    78.64, 7.22605E-012,  -114.15
Transformer.T100091,    1.63502,   -27.49,    1.63503,  -147.49,    1.63502,    92.51,          0,     0.00, 1.2527E-011,    35.35,    98.8774,   125.78,    98.8767,     5.78,    98.8747,  -114.22, 0.00464946,  -100.22, 8.40954E-011,    63.85
Transformer.T1000912,    1.63504,   -27.49,    1.63505,  -147.49,    1.63504,    92.51,          0,     0.00, 1.25332E-011,    35.39,    98.8786,   125.78,    98.8779,     5.78,     98.876,  -114.22,  0.0046514,  -100.22, 8.48137E-011,    64.26
Line.LINHA200,    132.351,   -26.64,     132.35,  -146.64,     132.35,    93.36,          0,     0.00, 0.00532513,   -30.88,    132.352,   153.36,    132.352,    33.36,    132.351,   -86.64,          0,     0.00, 0.00527574,   149.12
Line.LINHA201,    132.352,   -26.64,    132.352,  -146.64,    132.351,    93.36,          0,     0.00, 0.00527574,   -30.88,    132.353,   153.36,    132.352,    33.36,    132.352,   -86.64,          0,     0.00, 0.00526094,   149.11
Line.LINHA202,    132.353,   -26.64,    132.352,  -146.64,    132.352,    93.36,          0,     0.00, 0.00526094,   -30.89,    132.353,   153.36,    132.352,    33.36,    132.352,   -86.64,          0,     0.00, 0.00524614,   149.11
Line.LINHA203,    132.353,   -26.64,    132.352,  -146.64,    132.352,    93.36,          0,     0.00, 0.00524614,   -30.89,    132.353,   153.36,    132.353,    33.36,    132.352,   -86.64,          0,     0.00, 0.00524417,   149.11
Line.LINHA204,    132.353,   -26.64,    132.353,  -146.64,    132.352,    93.36,          0,     0.00, 0.00524417,   -30.89,    132.354,   153.36,    132.353,    33.36,    132.353,   -86.64,          0,     0.00, 0.00522938,   149.11
Line.LINHA205,    132.354,   -26.64,    132.353,  -146.64,    132.353,    93.36,          0,     0.00, 0.00522938,   -30.89,    132.354,   153.36,    132.353,    33.36,    132.353,   -86.64,          0,     0.00,  0.0052146,   149.11
Line.LINHA206,    132.354,   -26.64,    132.353,  -146.64,    132.353,    93.36,          0,     0.00,  0.0052146,   -30.89,    132.354,   153.36,    132.354,    33.36,    132.353,   -86.64,          0,     0.00, 0.00519982,   149.11
Line.LINHA207,    132.354,   -26.64,    132.354,  -146.64,    132.353,    93.36,          0,     0.00, 0.00519982,   -30.89,    132.355,   153.36,    132.354,    33.36,    132.354,   -86.64,          0,     0.00, 0.00518505,   149.11
Line.LINHA208,    132.355,   -26.64,    132.354,  -146.64,    132.354,    93.36,          0,     0.00, 0.00518505,   -30.89,    132.355,   153.36,    132.354,    33.36,    132.354,   -86.64,          0,     0.00, 0.00517028,   149.11
Line.LINHA209,    132.355,   -26.64,    132.354,  -146.64,    132.354,    93.36,          0,     0.00, 0.00517028,   -30.89,    132.355,   153.36,    132.355,    33.36,    132.354,   -86.64,          0,     0.00, 0.00515552,   149.11
Line.LINHA210,    132.355,   -26.64,    132.355,  -146.64,    132.354,    93.36,          0,     0.00, 0.00515552,   -30.89,    132.356,   153.36,    132.355,    33.36,    132.355,   -86.65,          0,     0.00, 0.00514077,   149.11
Line.LINHA211,    132.356,   -26.64,    132.355,  -146.64,    132.355,    93.35,          0,     0.00, 0.00514077,   -30.89,    132.356,   153.36,    132.356,    33.36,    132.355,   -86.65,          0,     0.00, 0.00512602,   149.11
Line.LINHA212,    130.773,   -26.65,    130.773,  -146.64,    130.772,    93.35,          0,     0.00, 0.00512602,   -30.89,    130.774,   153.35,    130.773,    33.36,    130.773,   -86.65,          0,     0.00, 0.00511128,   149.11
Line.LINHA213,    4.21477,   -26.34,    4.21461,  -146.34,    4.21462,    93.66,          0,     0.00, 0.00035369,   -30.74,    4.21513,   153.65,    4.21498,    33.65,    4.21498,   -86.35,          0,     0.00, 0.000338952,   149.26
Line.LINHA214,    4.21513,   -26.35,    4.21498,  -146.35,    4.21498,    93.65,          0,     0.00, 0.000338951,   -30.74,    4.21549,   153.64,    4.21534,    33.64,    4.21535,   -86.36,          0,     0.00, 0.000324213,   149.26
Line.LINHA215,    4.21549,   -26.36,    4.21534,  -146.36,    4.21535,    93.64,          0,     0.00, 0.000324213,   -30.74,    4.21585,   153.63,    4.21571,    33.63,    4.21572,   -86.37,          0,     0.00, 0.000309475,   149.26
Line.LINHA216,    4.21585,   -26.37,    4.21571,  -146.37,    4.21572,    93.63,          0,     0.00, 0.000309475,   -30.74,    4.21621,   153.62,    4.21608,    33.62,    4.21609,   -86.38,          0,     0.00, 0.000294737,   149.26
Line.LINHA217,    4.21621,   -26.38,    4.21608,  -146.38,    4.21609,    93.62,          0,     0.00, 0.000294737,   -30.74,    4.21657,   153.61,    4.21645,    33.61,    4.21645,   -86.39,          0,     0.00, 0.000279999,   149.26
Line.LINHA218,    2.63296,   -26.28,    2.63283,  -146.28,    2.63284,    93.72,          0,     0.00, 0.000279999,   -30.74,    2.63332,   153.70,     2.6332,    33.71,    2.63321,   -86.30,          0,     0.00, 0.000265261,   149.26
Line.LINHA219,    2.63332,   -26.30,     2.6332,  -146.29,    2.63321,    93.70,          0,     0.00, 0.000265261,   -30.74,    2.63368,   153.69,    2.63357,    33.69,    2.63357,   -86.31,          0,     0.00, 0.000250524,   149.26
