Bus, BasekV, Node1, Magnitude1, Angle1, pu1, Node2, Magnitude2, Angle2, pu2, Node3, Magnitude3, Angle3, pu3
"1", 13.8, 1,    7960.26,    0.0,    0.9991, 2,    7960.26, -120.0,    0.9991, 3,    7960.26,  120.0,    0.9991
"2012B", 0.22, 1,    125.234,  -30.6,   0.98597, 2,    125.235, -150.6,   0.98597, 3,    125.235,   89.4,   0.98597
"2018B", 0.22, 1,    125.089,  -30.6,   0.98482, 2,    125.089, -150.6,   0.98482, 3,    125.089,   89.4,   0.98482
"2030B", 0.22, 1,    125.732,  -30.1,   0.98988, 2,    125.732, -150.1,   0.98989, 3,    125.733,   89.9,   0.98989
"2044B", 0.22, 1,    125.051,  -30.6,   0.98452, 2,    125.051, -150.6,   0.98453, 3,    125.052,   89.4,   0.98453
"2057B", 0.22, 1,    124.975,  -30.6,   0.98393, 2,    124.976, -150.6,   0.98393, 3,    124.976,   89.4,   0.98393
"2061B", 0.22, 1,    124.975,  -30.6,   0.98393, 2,    124.976, -150.6,   0.98393, 3,    124.976,   89.4,   0.98393
"2065B", 0.22, 1,      124.9,  -30.6,   0.98333, 2,      124.9, -150.6,   0.98333, 3,      124.9,   89.4,   0.98334
"2071B", 0.22, 1,    124.804,  -30.6,   0.98258, 2,    124.804, -150.6,   0.98258, 3,    124.805,   89.4,   0.98258
"2076B", 0.22, 1,    124.803,  -30.6,   0.98257, 2,    124.803, -150.6,   0.98257, 3,    124.803,   89.4,   0.98257
"2088B", 0.22, 1,    124.744,  -30.6,    0.9821, 2,    124.744, -150.6,   0.98211, 3,    124.745,   89.4,   0.98211
"2091B", 0.22, 1,    124.743,  -30.6,    0.9821, 2,    124.743, -150.6,    0.9821, 3,    124.744,   89.4,    0.9821
"2097B", 0.22, 1,    124.694,  -30.6,   0.98171, 2,    124.695, -150.6,   0.98172, 3,    124.695,   89.4,   0.98172
"2098B", 0.22, 1,    124.677,  -30.6,   0.98158, 2,    124.678, -150.6,   0.98158, 3,    124.678,   89.4,   0.98159
"2106B", 0.22, 1,    124.658,  -30.6,   0.98143, 2,    124.659, -150.6,   0.98143, 3,    124.659,   89.4,   0.98144
"2113B", 0.22, 1,    124.608,  -30.6,   0.98103, 2,    124.608, -150.6,   0.98103, 3,    124.609,   89.4,   0.98104
"2125B", 0.22, 1,    124.602,  -30.6,   0.98099, 2,    124.603, -150.6,   0.98099, 3,    124.603,   89.4,     0.981
"2127B", 0.22, 1,    124.605,  -30.6,   0.98101, 2,    124.606, -150.6,   0.98102, 3,    124.606,   89.4,   0.98102
"2137B", 0.22, 1,    124.541,  -30.6,   0.98051, 2,    124.542, -150.6,   0.98051, 3,    124.542,   89.4,   0.98052
"2141B", 0.22, 1,    124.541,  -30.6,   0.98051, 2,    124.541, -150.6,   0.98051, 3,    124.542,   89.4,   0.98051
"2142B", 0.22, 1,    124.528,  -30.6,   0.98041, 2,    124.529, -150.6,   0.98041, 3,    124.529,   89.4,   0.98041
"2148B", 0.22, 1,    124.466,  -30.6,   0.97992, 2,    124.467, -150.6,   0.97992, 3,    124.467,   89.4,   0.97993
"2152B", 0.22, 1,    124.406,  -30.6,   0.97944, 2,    124.407, -150.6,   0.97945, 3,    124.407,   89.4,   0.97945
"2159B", 0.22, 1,    124.374,  -30.6,   0.97919, 2,    124.374, -150.6,   0.97919, 3,    124.375,   89.4,    0.9792
"2166B", 0.22, 1,    124.345,  -30.6,   0.97896, 2,    124.345, -150.6,   0.97897, 3,    124.346,   89.4,   0.97897
"2168B", 0.22, 1,    124.319,  -30.6,   0.97876, 2,     124.32, -150.6,   0.97876, 3,     124.32,   89.4,   0.97877
"2176B", 0.22, 1,    124.222,  -30.6,   0.97799, 2,    124.222, -150.6,   0.97799, 3,    124.223,   89.4,     0.978
"2184B", 0.22, 1,    124.181,  -30.6,   0.97767, 2,    124.181, -150.6,   0.97767, 3,    124.182,   89.4,   0.97768
"2190B", 0.22, 1,    124.155,  -30.6,   0.97747, 2,    124.155, -150.6,   0.97747, 3,    124.156,   89.4,   0.97748
"2193B", 0.22, 1,    124.132,  -30.6,   0.97728, 2,    124.132, -150.6,   0.97729, 3,    124.133,   89.4,   0.97729
"2199B", 0.22, 1,    124.107,  -30.6,   0.97709, 2,    124.107, -150.6,   0.97709, 3,    124.108,   89.4,    0.9771
"2200B", 0.22, 1,    124.097,  -30.6,   0.97701, 2,    124.097, -150.6,   0.97701, 3,    124.098,   89.4,   0.97702
"2220B", 0.22, 1,    124.006,  -30.6,   0.97629, 2,    124.006, -150.6,   0.97629, 3,    124.007,   89.4,    0.9763
"2231B", 0.22, 1,    124.002,  -30.6,   0.97627, 2,    124.003, -150.6,   0.97627, 3,    124.004,   89.4,   0.97628
"2237B", 0.22, 1,    124.004,  -30.6,   0.97627, 2,    124.004, -150.6,   0.97628, 3,    124.005,   89.4,   0.97629
"2241B", 0.22, 1,    124.001,  -30.6,   0.97626, 2,    124.002, -150.6,   0.97626, 3,    124.003,   89.4,   0.97627
"2250B", 0.22, 1,    123.999,  -30.6,   0.97624, 2,    123.999, -150.6,   0.97624, 3,        124,   89.4,   0.97625
"2253B", 0.22, 1,    123.998,  -30.6,   0.97623, 2,    123.998, -150.6,   0.97623, 3,    123.999,   89.4,   0.97624
"2259B", 0.22, 1,    124.008,  -30.6,   0.97631, 2,    124.009, -150.6,   0.97632, 3,     124.01,   89.4,   0.97632
"2261B", 0.22, 1,    124.004,  -30.6,   0.97628, 2,    124.005, -150.6,   0.97628, 3,    124.006,   89.4,   0.97629
"2269B", 0.22, 1,    123.991,  -30.6,   0.97618, 2,    123.992, -150.6,   0.97618, 3,    123.993,   89.4,   0.97619
"2274B", 0.22, 1,    123.989,  -30.6,   0.97616, 2,     123.99, -150.6,   0.97617, 3,    123.991,   89.4,   0.97617
"2279B", 0.22, 1,    123.982,  -30.6,   0.97611, 2,    123.983, -150.6,   0.97611, 3,    123.984,   89.4,   0.97612
"2286B", 0.22, 1,    123.975,  -30.6,   0.97605, 2,    123.976, -150.6,   0.97606, 3,    123.977,   89.4,   0.97607
"2288B", 0.22, 1,    123.975,  -30.6,   0.97605, 2,    123.975, -150.6,   0.97605, 3,    123.976,   89.4,   0.97606
"2290B", 0.22, 1,    123.977,  -30.6,   0.97606, 2,    123.977, -150.6,   0.97607, 3,    123.978,   89.4,   0.97608
"2294B", 0.22, 1,    123.974,  -30.6,   0.97604, 2,    123.975, -150.6,   0.97605, 3,    123.976,   89.4,   0.97606
"2296B", 0.22, 1,    123.974,  -30.6,   0.97605, 2,    123.975, -150.6,   0.97605, 3,    123.976,   89.4,   0.97606
"2304B", 0.22, 1,    123.948,  -30.7,   0.97584, 2,    123.948, -150.7,   0.97584, 3,    123.949,   89.3,   0.97585
"2306B", 0.22, 1,    123.949,  -30.7,   0.97584, 2,    123.949, -150.7,   0.97585, 3,     123.95,   89.3,   0.97585
"2314B", 0.22, 1,    123.943,  -30.7,    0.9758, 2,    123.943, -150.7,    0.9758, 3,    123.944,   89.3,   0.97581
"2318B", 0.22, 1,     123.94,  -30.7,   0.97577, 2,     123.94, -150.7,   0.97578, 3,    123.941,   89.3,   0.97578
"2323B", 0.22, 1,     123.95,  -30.7,   0.97586, 2,    123.951, -150.7,   0.97586, 3,    123.952,   89.3,   0.97587
"2327B", 0.22, 1,    123.921,  -30.7,   0.97563, 2,    123.922, -150.7,   0.97563, 3,    123.923,   89.3,   0.97564
"2332B", 0.22, 1,    123.908,  -30.7,   0.97552, 2,    123.908, -150.7,   0.97552, 3,    123.909,   89.3,   0.97553
"2337B", 0.22, 1,    124.384,  -30.4,   0.97927, 2,    124.385, -150.4,   0.97928, 3,    124.386,   89.6,   0.97929
"2342B", 0.22, 1,      123.9,  -30.7,   0.97546, 2,      123.9, -150.7,   0.97546, 3,    123.901,   89.3,   0.97547
"2347B", 0.22, 1,    123.899,  -30.7,   0.97545, 2,    123.899, -150.7,   0.97545, 3,      123.9,   89.3,   0.97546
"2352B", 13.8, 1,          0,    0.0,         0, 2,          0,    0.0,         0, 3,          0,    0.0,         0
"2353B", 0.22, 1,    123.901,  -30.7,   0.97546, 2,    123.901, -150.7,   0.97547, 3,    123.902,   89.3,   0.97548
"2354B", 0.22, 1,    124.287,  -30.4,   0.97851, 2,    124.288, -150.4,   0.97851, 3,    124.289,   89.6,   0.97852
"2360B", 0.22, 1,    124.286,  -30.4,    0.9785, 2,    124.287, -150.4,   0.97851, 3,    124.288,   89.6,   0.97851
"2012", 13.8, 1,    7925.46,   -0.1,   0.99473, 2,    7925.49, -120.1,   0.99474, 3,    7925.49,  119.9,   0.99474
"2018", 13.8, 1,    7916.37,   -0.1,   0.99359, 2,    7916.41, -120.1,    0.9936, 3,     7916.4,  119.9,   0.99359
"2030", 13.8, 1,    7900.91,   -0.1,   0.99165, 2,    7900.96, -120.1,   0.99166, 3,    7900.95,  119.9,   0.99166
"2044", 13.8, 1,    7914.04,   -0.1,    0.9933, 2,    7914.08, -120.1,    0.9933, 3,    7914.08,  119.9,    0.9933
"2057", 13.8, 1,    7909.31,   -0.1,   0.99271, 2,    7909.36, -120.1,   0.99271, 3,    7909.35,  119.9,   0.99271
"2061", 13.8, 1,    7909.31,   -0.1,   0.99271, 2,    7909.36, -120.1,   0.99271, 3,    7909.35,  119.9,   0.99271
"2065", 13.8, 1,     7904.6,   -0.1,   0.99211, 2,    7904.65, -120.1,   0.99212, 3,    7904.65,  119.9,   0.99212
"2071", 13.8, 1,    7898.62,   -0.1,   0.99136, 2,    7898.68, -120.1,   0.99137, 3,    7898.67,  119.9,   0.99137
"2076", 13.8, 1,    7898.54,   -0.1,   0.99135, 2,     7898.6, -120.1,   0.99136, 3,    7898.59,  119.9,   0.99136
"2088", 13.8, 1,    7894.89,   -0.1,    0.9909, 2,    7894.95, -120.1,    0.9909, 3,    7894.94,  119.9,    0.9909
"2091", 13.8, 1,    7894.84,   -0.1,   0.99089, 2,     7894.9, -120.1,    0.9909, 3,    7894.89,  119.9,    0.9909
"2097", 13.8, 1,    7891.79,   -0.1,   0.99051, 2,    7891.85, -120.1,   0.99051, 3,    7891.84,  119.9,   0.99051
"2098", 13.8, 1,    7890.74,   -0.1,   0.99037, 2,     7890.8, -120.1,   0.99038, 3,    7890.79,  119.9,   0.99038
"2106", 13.8, 1,    7889.54,   -0.1,   0.99022, 2,    7889.61, -120.1,   0.99023, 3,     7889.6,  119.9,   0.99023
"2113", 13.8, 1,    7886.39,   -0.1,   0.98983, 2,    7886.46, -120.1,   0.98984, 3,    7886.45,  119.9,   0.98984
"2125", 13.8, 1,    7886.07,   -0.1,   0.98979, 2,    7886.14, -120.1,    0.9898, 3,    7886.13,  119.9,    0.9898
"2127", 13.8, 1,    7886.25,   -0.1,   0.98981, 2,    7886.32, -120.1,   0.98982, 3,    7886.31,  119.9,   0.98982
"2137", 13.8, 1,    7882.26,   -0.1,   0.98931, 2,    7882.33, -120.1,   0.98932, 3,    7882.32,  119.9,   0.98932
"2141", 13.8, 1,    7882.23,   -0.1,   0.98931, 2,     7882.3, -120.1,   0.98931, 3,    7882.29,  119.9,   0.98931
"2142", 13.8, 1,    7881.45,   -0.1,   0.98921, 2,    7881.52, -120.1,   0.98922, 3,    7881.51,  119.9,   0.98922
"2148", 13.8, 1,    7877.57,   -0.1,   0.98872, 2,    7877.65, -120.1,   0.98873, 3,    7877.64,  119.9,   0.98873
"2152", 13.8, 1,    7873.83,   -0.1,   0.98825, 2,     7873.9, -120.1,   0.98826, 3,    7873.89,  119.9,   0.98826
"2159", 13.8, 1,    7871.84,   -0.1,     0.988, 2,    7871.92, -120.1,   0.98801, 3,    7871.91,  119.9,   0.98801
"2166", 13.8, 1,    7870.03,   -0.1,   0.98778, 2,    7870.11, -120.1,   0.98779, 3,     7870.1,  119.9,   0.98778
"2168", 13.8, 1,    7868.42,   -0.1,   0.98757, 2,     7868.5, -120.1,   0.98758, 3,    7868.49,  119.9,   0.98758
"2176", 13.8, 1,    7862.34,   -0.1,   0.98681, 2,    7862.43, -120.1,   0.98682, 3,    7862.42,  119.9,   0.98682
"2184", 13.8, 1,    7859.79,   -0.1,   0.98649, 2,    7859.88, -120.1,    0.9865, 3,    7859.87,  119.9,    0.9865
"2190", 13.8, 1,    7858.18,   -0.1,   0.98629, 2,    7858.27, -120.1,    0.9863, 3,    7858.26,  119.9,    0.9863
"2193", 13.8, 1,    7856.72,   -0.1,    0.9861, 2,    7856.82, -120.1,   0.98612, 3,     7856.8,  119.9,   0.98611
"2199", 13.8, 1,    7855.18,   -0.1,   0.98591, 2,    7855.28, -120.1,   0.98592, 3,    7855.27,  119.9,   0.98592
"2200", 13.8, 1,    7854.55,   -0.1,   0.98583, 2,    7854.65, -120.1,   0.98584, 3,    7854.64,  119.9,   0.98584
"2219", 13.8, 1,    7848.86,   -0.1,   0.98512, 2,    7848.96, -120.1,   0.98513, 3,    7848.95,  119.9,   0.98513
"2231", 13.8, 1,    7848.67,   -0.1,   0.98509, 2,    7848.77, -120.1,   0.98511, 3,    7848.75,  119.9,    0.9851
"2237", 13.8, 1,    7848.73,   -0.1,    0.9851, 2,    7848.83, -120.1,   0.98511, 3,    7848.82,  119.9,   0.98511
"2241", 13.8, 1,    7848.59,   -0.1,   0.98508, 2,    7848.69, -120.1,    0.9851, 3,    7848.68,  119.9,    0.9851
"2250", 13.8, 1,    7848.44,   -0.1,   0.98507, 2,    7848.54, -120.1,   0.98508, 3,    7848.53,  119.9,   0.98508
"2253", 13.8, 1,    7848.36,   -0.1,   0.98505, 2,    7848.46, -120.1,   0.98507, 3,    7848.45,  119.9,   0.98507
"2259", 13.8, 1,    7849.03,   -0.1,   0.98514, 2,    7849.13, -120.1,   0.98515, 3,    7849.11,  119.9,   0.98515
"2261", 13.8, 1,    7848.79,   -0.1,   0.98511, 2,    7848.89, -120.1,   0.98512, 3,    7848.88,  119.9,   0.98512
"2269", 13.8, 1,    7847.97,   -0.1,   0.98501, 2,    7848.07, -120.1,   0.98502, 3,    7848.06,  119.9,   0.98502
"2274", 13.8, 1,    7847.85,   -0.1,   0.98499, 2,    7847.96, -120.1,     0.985, 3,    7847.94,  119.9,     0.985
"2279", 13.8, 1,    7847.41,   -0.1,   0.98494, 2,    7847.52, -120.1,   0.98495, 3,     7847.5,  119.9,   0.98495
"2286", 13.8, 1,    7846.98,   -0.1,   0.98488, 2,    7847.08, -120.1,   0.98489, 3,    7847.07,  119.9,   0.98489
"2288", 13.8, 1,    7846.94,   -0.1,   0.98488, 2,    7847.05, -120.1,   0.98489, 3,    7847.03,  119.9,   0.98489
"2290", 13.8, 1,    7847.06,   -0.1,   0.98489, 2,    7847.16, -120.1,    0.9849, 3,    7847.15,  119.9,    0.9849
"2294", 13.8, 1,    7846.92,   -0.1,   0.98487, 2,    7847.02, -120.1,   0.98489, 3,    7847.01,  119.9,   0.98489
"2296", 13.8, 1,    7846.91,   -0.1,   0.98487, 2,    7847.02, -120.1,   0.98489, 3,       7847,  119.9,   0.98488
"2304", 13.8, 1,    7845.29,   -0.1,   0.98467, 2,    7845.39, -120.1,   0.98468, 3,    7845.38,  119.9,   0.98468
"2306", 13.8, 1,    7845.32,   -0.1,   0.98467, 2,    7845.43, -120.1,   0.98469, 3,    7845.41,  119.9,   0.98469
"2314", 13.8, 1,    7844.96,   -0.1,   0.98463, 2,    7845.07, -120.1,   0.98464, 3,    7845.06,  119.9,   0.98464
"2318", 13.8, 1,    7844.77,   -0.1,    0.9846, 2,    7844.87, -120.1,   0.98462, 3,    7844.86,  119.9,   0.98462
"2323", 13.8, 1,    7845.44,   -0.1,   0.98469, 2,    7845.54, -120.1,    0.9847, 3,    7845.53,  119.9,    0.9847
"2327", 13.8, 1,    7843.62,   -0.1,   0.98446, 2,    7843.73, -120.1,   0.98447, 3,    7843.71,  119.9,   0.98447
"2332", 13.8, 1,    7842.77,   -0.1,   0.98435, 2,    7842.88, -120.1,   0.98437, 3,    7842.87,  119.9,   0.98437
"2337", 13.8, 1,     7842.4,   -0.1,   0.98431, 2,    7842.51, -120.1,   0.98432, 3,     7842.5,  119.9,   0.98432
"2342", 13.8, 1,    7842.27,   -0.1,   0.98429, 2,    7842.38, -120.1,    0.9843, 3,    7842.37,  119.9,    0.9843
"2347", 13.8, 1,    7842.22,   -0.1,   0.98428, 2,    7842.33, -120.1,    0.9843, 3,    7842.31,  119.9,    0.9843
"2353", 13.8, 1,    7842.32,   -0.1,    0.9843, 2,    7842.43, -120.1,   0.98431, 3,    7842.42,  119.9,   0.98431
"2354", 13.8, 1,    7842.31,   -0.1,    0.9843, 2,    7842.41, -120.1,   0.98431, 3,     7842.4,  119.9,   0.98431
"2360", 13.8, 1,    7842.27,   -0.1,   0.98429, 2,    7842.37, -120.1,    0.9843, 3,    7842.36,  119.9,    0.9843
"2001", 13.8, 1,    7951.65,   -0.1,   0.99802, 2,    7951.65, -120.1,   0.99802, 3,    7951.65,  119.9,   0.99802
"2002", 13.8, 1,    7949.06,   -0.1,   0.99769, 2,    7949.07, -120.1,    0.9977, 3,    7949.07,  119.9,    0.9977
"2003", 13.8, 1,    7946.48,   -0.1,   0.99737, 2,    7946.49, -120.1,   0.99737, 3,    7946.49,  119.9,   0.99737
"2004", 13.8, 1,    7946.13,   -0.1,   0.99733, 2,    7946.15, -120.1,   0.99733, 3,    7946.14,  119.9,   0.99733
"2005", 13.8, 1,    7943.55,   -0.1,     0.997, 2,    7943.56, -120.1,     0.997, 3,    7943.56,  119.9,     0.997
"2006", 13.8, 1,    7940.97,   -0.1,   0.99668, 2,    7940.98, -120.1,   0.99668, 3,    7940.98,  119.9,   0.99668
"2007", 13.8, 1,    7938.38,   -0.1,   0.99635, 2,     7938.4, -120.1,   0.99636, 3,     7938.4,  119.9,   0.99636
"2008", 13.8, 1,     7935.8,   -0.1,   0.99603, 2,    7935.82, -120.1,   0.99603, 3,    7935.81,  119.9,   0.99603
"2009", 13.8, 1,    7933.21,   -0.1,    0.9957, 2,    7933.24, -120.1,   0.99571, 3,    7933.23,  119.9,   0.99571
"2010", 13.8, 1,    7930.63,   -0.1,   0.99538, 2,    7930.65, -120.1,   0.99538, 3,    7930.65,  119.9,   0.99538
"2011", 13.8, 1,    7928.04,   -0.1,   0.99506, 2,    7928.07, -120.1,   0.99506, 3,    7928.07,  119.9,   0.99506
"2013", 13.8, 1,    7922.89,   -0.1,   0.99441, 2,    7922.92, -120.1,   0.99441, 3,    7922.92,  119.9,   0.99441
"2014", 13.8, 1,    7921.59,   -0.1,   0.99425, 2,    7921.62, -120.1,   0.99425, 3,    7921.62,  119.9,   0.99425
"2015", 13.8, 1,    7920.28,   -0.1,   0.99408, 2,    7920.32, -120.1,   0.99409, 3,    7920.31,  119.9,   0.99409
"2016", 13.8, 1,    7918.98,   -0.1,   0.99392, 2,    7919.01, -120.1,   0.99392, 3,    7919.01,  119.9,   0.99392
"2017", 13.8, 1,    7917.67,   -0.1,   0.99375, 2,    7917.71, -120.1,   0.99376, 3,     7917.7,  119.9,   0.99376
"2019", 13.8, 1,    7915.08,   -0.1,   0.99343, 2,    7915.12, -120.1,   0.99343, 3,    7915.11,  119.9,   0.99343
"2020", 13.8, 1,    7913.79,   -0.1,   0.99327, 2,    7913.83, -120.1,   0.99327, 3,    7913.83,  119.9,   0.99327
"2021", 13.8, 1,     7912.5,   -0.1,   0.99311, 2,    7912.54, -120.1,   0.99311, 3,    7912.54,  119.9,   0.99311
"2022", 13.8, 1,    7911.22,   -0.1,   0.99294, 2,    7911.26, -120.1,   0.99295, 3,    7911.25,  119.9,   0.99295
"2023", 13.8, 1,    7909.93,   -0.1,   0.99278, 2,    7909.97, -120.1,   0.99279, 3,    7909.96,  119.9,   0.99279
"2024", 13.8, 1,    7908.64,   -0.1,   0.99262, 2,    7908.68, -120.1,   0.99263, 3,    7908.68,  119.9,   0.99263
"2025", 13.8, 1,    7907.35,   -0.1,   0.99246, 2,    7907.39, -120.1,   0.99246, 3,    7907.39,  119.9,   0.99246
"2026", 13.8, 1,    7906.06,   -0.1,    0.9923, 2,    7906.11, -120.1,    0.9923, 3,     7906.1,  119.9,    0.9923
"2027", 13.8, 1,    7904.77,   -0.1,   0.99214, 2,    7904.82, -120.1,   0.99214, 3,    7904.81,  119.9,   0.99214
"2028", 13.8, 1,    7903.48,   -0.1,   0.99197, 2,    7903.53, -120.1,   0.99198, 3,    7903.52,  119.9,   0.99198
"2029", 13.8, 1,     7902.2,   -0.1,   0.99181, 2,    7902.24, -120.1,   0.99182, 3,    7902.24,  119.9,   0.99182
"2031", 13.8, 1,    7900.91,   -0.1,   0.99165, 2,    7900.96, -120.1,   0.99166, 3,    7900.95,  119.9,   0.99166
"2032", 13.8, 1,    7900.91,   -0.1,   0.99165, 2,    7900.96, -120.1,   0.99166, 3,    7900.95,  119.9,   0.99166
"2033", 13.8, 1,    7900.91,   -0.1,   0.99165, 2,    7900.96, -120.1,   0.99166, 3,    7900.95,  119.9,   0.99166
"2034", 13.8, 1,    7900.91,   -0.1,   0.99165, 2,    7900.96, -120.1,   0.99166, 3,    7900.95,  119.9,   0.99166
"2035", 13.8, 1,    7900.91,   -0.1,   0.99165, 2,    7900.96, -120.1,   0.99166, 3,    7900.95,  119.9,   0.99166
"2036", 13.8, 1,    7900.91,   -0.1,   0.99165, 2,    7900.96, -120.1,   0.99166, 3,    7900.95,  119.9,   0.99166
"2037", 13.8, 1,    7900.91,   -0.1,   0.99165, 2,    7900.96, -120.1,   0.99166, 3,    7900.95,  119.9,   0.99166
"2038", 13.8, 1,    7921.63,   -0.1,   0.99425, 2,    7921.66, -120.1,   0.99426, 3,    7921.66,  119.9,   0.99425
"2039", 13.8, 1,    7920.36,   -0.1,   0.99409, 2,     7920.4, -120.1,    0.9941, 3,    7920.39,  119.9,    0.9941
"2040", 13.8, 1,     7919.1,   -0.1,   0.99393, 2,    7919.14, -120.1,   0.99394, 3,    7919.13,  119.9,   0.99394
"2041", 13.8, 1,    7917.84,   -0.1,   0.99377, 2,    7917.87, -120.1,   0.99378, 3,    7917.87,  119.9,   0.99378
"2042", 13.8, 1,    7916.57,   -0.1,   0.99362, 2,    7916.61, -120.1,   0.99362, 3,     7916.6,  119.9,   0.99362
"2043", 13.8, 1,    7915.31,   -0.1,   0.99346, 2,    7915.35, -120.1,   0.99346, 3,    7915.34,  119.9,   0.99346
"2045", 13.8, 1,     7912.8,   -0.1,   0.99314, 2,    7912.84, -120.1,   0.99315, 3,    7912.83,  119.9,   0.99315
"2046", 13.8, 1,    7912.38,   -0.1,   0.99309, 2,    7912.42, -120.1,    0.9931, 3,    7912.42,  119.9,   0.99309
"2047", 13.8, 1,    7911.96,   -0.1,   0.99304, 2,    7912.01, -120.1,   0.99304, 3,       7912,  119.9,   0.99304
"2048", 13.8, 1,    7910.72,   -0.1,   0.99288, 2,    7910.76, -120.1,   0.99289, 3,    7910.75,  119.9,   0.99289
"2049", 13.8, 1,    7909.47,   -0.1,   0.99272, 2,    7909.51, -120.1,   0.99273, 3,    7909.51,  119.9,   0.99273
"2050", 13.8, 1,    7909.45,   -0.1,   0.99272, 2,     7909.5, -120.1,   0.99273, 3,    7909.49,  119.9,   0.99273
"2051", 13.8, 1,    7909.44,   -0.1,   0.99272, 2,    7909.49, -120.1,   0.99273, 3,    7909.48,  119.9,   0.99273
"2052", 13.8, 1,    7909.41,   -0.1,   0.99272, 2,    7909.45, -120.1,   0.99272, 3,    7909.45,  119.9,   0.99272
