Element, I1_1, Ang1_1, I1_2, Ang1_2, I1_3, Ang1_3, I1_4, Ang1_4, Iresid1, AngResid1, I2_1, Ang2_1, I2_2, Ang2_2, I2_3, Ang2_3, I2_4, Ang2_4, Iresid2, AngResid2
Vsource.SOURCE,    30.0168,   102.71,    30.0135,   -17.29,    30.0163,  -137.29,          0,     0.00, 0.00540761,   149.39,    30.0168,   -77.29,    30.0135,   162.71,    30.0163,    42.71,          0,     0.00, 0.00540761,   -30.61
Transformer.T32,   0.645964,   -28.68,   0.645964,  -148.68,   0.645964,    91.32,          0,     0.00, 1.63743E-013,    74.91,     38.169,   126.47,    38.1689,     6.47,    38.1689,  -113.53, 7.25421E-005,   -47.36, 1.54631E-012,   126.03
Transformer.T33,    0.64574,   -28.66,    0.64574,  -148.66,    0.64574,    91.34,          0,     0.00, 7.10543E-014,   126.87,    38.1539,   126.50,    38.1538,     6.50,    38.1538,  -113.50, 8.25371E-005,   -22.51, 1.7053E-012,   143.13
Transformer.T34,    1.43204,  -173.83,    1.43204,    66.17,    1.43204,   -53.83,          0,     0.00, 5.76515E-013,  -138.75,    90.4627,   -28.37,    90.4626,  -148.37,    90.4628,    91.63, 0.000319126,  -140.25, 6.40694E-012,    27.47
Transformer.T35,   0.646639,   -28.68,   0.646639,  -148.68,   0.646639,    91.32,          0,     0.00, 4.56534E-013,    60.64,    38.2145,   126.47,    38.2144,     6.47,    38.2144,  -113.53, 0.000128366,   -69.30, 1.83315E-012,    97.13
Transformer.T36,   0.646979,   -28.68,    0.64698,  -148.68,   0.646979,    91.32,          0,     0.00, 6.17845E-013,    59.60,    38.2374,   126.47,    38.2374,     6.47,    38.2374,  -113.53, 0.000159281,   -74.95, 2.39823E-012,    84.56
Transformer.T37,   0.646979,   -28.68,    0.64698,  -148.68,   0.646979,    91.32,          0,     0.00, 6.17845E-013,    59.60,    38.2374,   126.47,    38.2374,     6.47,    38.2374,  -113.53, 0.000159281,   -74.95, 2.39823E-012,    84.56
Transformer.T38,    1.07895,   -28.68,    1.07895,  -148.68,    1.07895,    91.32,          0,     0.00, 1.26853E-012,    58.98,    63.7715,   126.45,    63.7714,     6.45,    63.7714,  -113.55, 0.000318642,   -78.73, 5.91609E-012,    87.80
Transformer.T39,   0.647751,   -28.67,   0.647751,  -148.67,   0.647751,    91.33,          0,     0.00, 9.4374E-013,    57.69,    38.2895,   126.46,    38.2894,     6.46,    38.2893,  -113.54, 0.000232588,   -82.02, 4.61658E-012,    80.07
Transformer.T40,   0.647757,   -28.67,   0.647757,  -148.67,   0.647757,    91.33,          0,     0.00, 9.56954E-013,    57.43,    38.2899,   126.46,    38.2898,     6.46,    38.2897,  -113.54, 0.000233148,   -82.06, 4.86069E-012,    79.22
Transformer.T41,   0.648021,   -28.67,   0.648021,  -148.67,   0.648021,    91.33,          0,     0.00, 1.07012E-012,    56.78,    38.3077,   126.45,    38.3076,     6.45,    38.3075,  -113.55, 0.000258788,   -83.55, 4.7978E-012,    76.29
Transformer.T42,    1.08012,   -28.68,    1.08012,  -148.68,    1.08012,    91.32,          0,     0.00, 1.76971E-012,    56.63,    63.8508,   126.44,    63.8507,     6.44,    63.8506,  -113.56, 0.000431909,   -83.58, 7.77738E-012,    74.74
Transformer.T43,   0.648246,   -28.67,   0.648246,  -148.67,   0.648245,    91.33,          0,     0.00, 1.16025E-012,    56.55,    38.3228,   126.45,    38.3227,     6.45,    38.3227,  -113.55, 0.000280717,   -84.60, 5.30809E-012,    80.13
Transformer.T44,   0.648322,   -28.67,   0.648322,  -148.67,   0.648322,    91.33,          0,     0.00, 1.1972E-012,    56.50,    38.3279,   126.45,    38.3279,     6.45,    38.3278,  -113.55, 0.000288173,   -84.92, 5.04595E-012,    75.65
Transformer.T45,   0.648408,   -28.67,   0.648408,  -148.67,   0.648408,    91.33,          0,     0.00, 1.23367E-012,    56.63,    38.3338,   126.45,    38.3337,     6.45,    38.3336,  -113.55, 0.000296668,   -85.27, 4.88324E-012,    77.91
Transformer.T46,   0.648637,   -28.67,   0.648637,  -148.67,   0.648637,    91.33,          0,     0.00, 1.32731E-012,    55.80,    38.3492,   126.45,    38.3491,     6.45,     38.349,  -113.55, 0.000319152,   -86.09, 5.77569E-012,    79.80
Transformer.T47,    1.08118,   -28.68,    1.08118,  -148.68,    1.08118,    91.32,          0,     0.00, 2.2269E-012,    56.06,    63.9222,   126.44,    63.9221,     6.44,    63.9219,  -113.56, 0.000535774,   -86.18, 9.87179E-012,    82.06
Transformer.T48,   0.648647,   -28.67,   0.648647,  -148.67,   0.648647,    91.33,          0,     0.00, 1.33416E-012,    56.18,    38.3499,   126.45,    38.3498,     6.45,    38.3497,  -113.55, 0.000320143,   -86.13, 6.15276E-012,    73.91
Transformer.T49,   0.648937,   -28.67,   0.648937,  -148.67,   0.648936,    91.33,          0,     0.00, 1.45982E-012,    55.96,    38.3694,   126.44,    38.3693,     6.44,    38.3692,  -113.56, 0.000348741,   -87.01, 6.04361E-012,    73.61
Transformer.T50,   0.648939,   -28.67,   0.648939,  -148.67,   0.648939,    91.33,          0,     0.00, 1.46874E-012,    55.69,    38.3695,   126.44,    38.3695,     6.44,    38.3693,  -113.56, 0.000348971,   -87.02, 6.53576E-012,    76.93
Transformer.T51,   0.648996,   -28.67,   0.648996,  -148.67,   0.648996,    91.33,          0,     0.00, 1.48942E-012,    55.74,    38.3734,   126.44,    38.3733,     6.44,    38.3732,  -113.56, 0.000354606,   -87.18, 6.78321E-012,    76.43
Transformer.T52,   0.649277,   -28.67,   0.649278,  -148.67,   0.649277,    91.33,          0,     0.00, 1.60487E-012,    55.32,    38.3924,   126.44,    38.3923,     6.44,    38.3921,  -113.56, 0.00038251,   -87.89, 7.27063E-012,    80.10
Transformer.T53,    0.64955,   -28.66,    0.64955,  -148.66,    0.64955,    91.34,          0,     0.00, 1.72419E-012,    55.20,    38.4107,   126.43,    38.4106,     6.43,    38.4105,  -113.57, 0.000409591,   -88.49, 6.98041E-012,    73.93
Transformer.T54,    1.08291,   -28.67,    1.08291,  -148.67,    1.08291,    91.33,          0,     0.00, 2.98327E-012,    55.14,    64.0384,   126.42,    64.0383,     6.42,     64.038,  -113.58, 0.000706753,   -88.78, 1.32307E-011,    70.94
Transformer.T55,    1.08313,   -28.67,    1.08313,  -148.67,    1.08313,    91.33,          0,     0.00, 3.06943E-012,    54.80,    64.0532,   126.42,     64.053,     6.42,    64.0528,  -113.58, 0.000728576,   -89.03, 1.38996E-011,    74.83
Transformer.T56,    1.08332,   -28.67,    1.08332,  -148.67,    1.08332,    91.33,          0,     0.00, 3.1656E-012,    54.45,    64.0664,   126.42,    64.0662,     6.42,     64.066,  -113.58, 0.000748157,   -89.23, 1.3024E-011,    73.78
Transformer.T57,    1.08406,   -28.67,    1.08406,  -148.67,    1.08406,    91.33,          0,     0.00, 3.46255E-012,    54.35,    64.1162,   126.41,     64.116,     6.42,    64.1157,  -113.59, 0.000822039,   -89.92, 1.53288E-011,    69.15
Transformer.T58,    1.08437,   -28.67,    1.08437,  -148.67,    1.08437,    91.33,          0,     0.00, 3.6059E-012,    54.18,    64.1371,   126.41,    64.1369,     6.41,    64.1366,  -113.59, 0.000853123,   -90.18, 1.49584E-011,    70.46
Transformer.T59,    1.08457,   -28.67,    1.08457,  -148.67,    1.08457,    91.33,          0,     0.00, 3.69839E-012,    54.26,    64.1504,   126.41,    64.1501,     6.41,    64.1498,  -113.59, 0.000872802,   -90.33, 1.65531E-011,    74.05
Transformer.T60,    1.08474,   -28.67,    1.08475,  -148.67,    1.08474,    91.33,          0,     0.00, 3.77071E-012,    54.12,    64.1623,   126.41,    64.1621,     6.41,    64.1618,  -113.59, 0.000890589,   -90.46, 1.58331E-011,    77.56
Transformer.T61,    1.08493,   -28.67,    1.08493,  -148.67,    1.08493,    91.33,          0,     0.00, 3.84592E-012,    54.02,    64.1749,   126.41,    64.1747,     6.41,    64.1744,  -113.59, 0.000909435,   -90.60, 1.63788E-011,    76.35
Transformer.T62,    1.08501,   -28.67,    1.08501,  -148.67,    1.08501,    91.33,          0,     0.00, 3.86864E-012,    54.00,    64.1801,   126.41,    64.1799,     6.41,    64.1796,  -113.59, 0.000917138,   -90.65, 1.75917E-011,    75.78
Transformer.T82,   0.651373,   -28.66,   0.651374,  -148.66,   0.651373,    91.34,          0,     0.00, 2.5057E-012,    54.06,    38.5336,   126.41,    38.5334,     6.41,    38.5332,  -113.59, 0.000592161,   -91.08, 1.00727E-011,    73.61
Transformer.T63,   0.651388,   -28.66,   0.651388,  -148.66,   0.651387,    91.34,          0,     0.00, 2.51226E-012,    54.26,    38.5345,   126.41,    38.5344,     6.41,    38.5342,  -113.59, 0.000593572,   -91.09, 1.13687E-011,    73.74
Transformer.T64,   0.651383,   -28.66,   0.651383,  -148.66,   0.651383,    91.34,          0,     0.00, 2.51066E-012,    54.04,    38.5342,   126.41,    38.5341,     6.41,    38.5339,  -113.59, 0.000593106,   -91.09, 1.14689E-011,    72.10
Transformer.T65,   0.651393,   -28.66,   0.651393,  -148.66,   0.651393,    91.34,          0,     0.00, 2.51562E-012,    54.02,    38.5349,   126.41,    38.5348,     6.41,    38.5345,  -113.59, 0.000594129,   -91.10, 1.06454E-011,    70.02
Transformer.T66,   0.651404,   -28.66,   0.651404,  -148.66,   0.651404,    91.34,          0,     0.00, 2.52506E-012,    54.27,    38.5356,   126.41,    38.5355,     6.41,    38.5353,  -113.59, 0.000595227,   -91.11, 1.07913E-011,    73.47
Transformer.T67,    0.65141,   -28.66,    0.65141,  -148.66,    0.65141,    91.34,          0,     0.00, 2.5313E-012,    54.08,     38.536,   126.41,    38.5359,     6.41,    38.5357,  -113.59, 0.000595851,   -91.12, 1.11506E-011,    73.41
Transformer.T68,   0.651361,   -28.66,   0.651361,  -148.66,   0.651361,    91.34,          0,     0.00, 2.50271E-012,    53.81,    38.5327,   126.41,    38.5326,     6.41,    38.5324,  -113.59, 0.000590926,   -91.07, 1.06174E-011,    77.01
Transformer.T69,    1.08571,   -28.66,    1.08571,  -148.66,    1.08571,    91.34,          0,     0.00, 4.17974E-012,    53.85,    64.2275,   126.40,    64.2272,     6.40,    64.2269,  -113.60, 0.00098782,   -91.09, 1.73357E-011,    73.23
Transformer.T70,    1.08581,   -28.66,    1.08581,  -148.66,    1.08581,    91.34,          0,     0.00, 4.22833E-012,    54.09,    64.2342,   126.40,     64.234,     6.40,    64.2337,  -113.60, 0.000997942,   -91.15, 1.89103E-011,    71.78
Transformer.T71,    1.08583,   -28.66,    1.08583,  -148.66,    1.08583,    91.34,          0,     0.00, 4.22675E-012,    53.96,    64.2352,   126.40,     64.235,     6.40,    64.2346,  -113.60, 0.000999376,   -91.16, 1.80544E-011,    73.16
Transformer.T72,    1.08588,   -28.66,    1.08588,  -148.66,    1.08588,    91.34,          0,     0.00, 4.26055E-012,    53.58,    64.2388,   126.40,    64.2386,     6.40,    64.2383,  -113.60,  0.0010048,   -91.19, 1.89267E-011,    73.96
Transformer.T73,   0.651511,   -28.66,   0.651511,  -148.66,   0.651511,    91.34,          0,     0.00, 2.5539E-012,    53.86,    38.5428,   126.41,    38.5427,     6.41,    38.5425,  -113.59, 0.000606021,   -91.22, 1.0541E-011,    73.72
Transformer.T74,    1.08594,   -28.66,    1.08594,  -148.66,    1.08594,    91.34,          0,     0.00, 4.27926E-012,    53.88,    64.2427,   126.40,    64.2425,     6.40,    64.2421,  -113.60, 0.00101057,   -91.23, 1.85557E-011,    72.90
Transformer.T75,   0.651505,   -28.66,   0.651506,  -148.66,   0.651505,    91.34,          0,     0.00, 2.56659E-012,    53.67,    38.5425,   126.41,    38.5423,     6.41,    38.5421,  -113.59, 0.000605464,   -91.21, 1.12596E-011,    73.58
Transformer.T76,    1.08594,   -28.66,    1.08594,  -148.66,    1.08594,    91.34,          0,     0.00, 4.26913E-012,    53.66,    64.2429,   126.40,    64.2426,     6.40,    64.2423,  -113.60, 0.00101085,   -91.23, 1.87083E-011,    69.36
Transformer.T77,   0.651516,   -28.66,   0.651516,  -148.66,   0.651516,    91.34,          0,     0.00, 2.5687E-012,    53.61,    38.5432,   126.41,     38.543,     6.41,    38.5428,  -113.59, 0.000606527,   -91.22, 1.06847E-011,    69.44
Transformer.T78,    1.81037,   -28.67,    1.81037,  -148.67,    1.81037,    91.33,          0,     0.00, 7.26088E-012,    53.84,    107.101,   126.39,    107.101,     6.39,      107.1,  -113.61, 0.00171845,   -91.34, 2.94885E-011,    72.96
Transformer.T79,    1.08614,   -28.66,    1.08614,  -148.66,    1.08614,    91.34,          0,     0.00, 4.36577E-012,    53.67,     64.256,   126.40,    64.2558,     6.40,    64.2555,  -113.60, 0.00103056,   -91.33, 1.84271E-011,    74.25
Transformer.T80,    1.81044,   -28.67,    1.81044,  -148.67,    1.81044,    91.33,          0,     0.00, 7.29334E-012,    53.68,    107.106,   126.39,    107.105,     6.39,    107.105,  -113.61, 0.00172508,   -91.36, 3.1496E-011,    72.35
Transformer.T81,     1.0862,   -28.66,    1.08621,  -148.66,     1.0862,    91.34,          0,     0.00, 4.38716E-012,    53.76,    64.2606,   126.40,    64.2604,     6.40,      64.26,  -113.60, 0.00103736,   -91.36, 1.89213E-011,    69.61
Transformer.T1000,    1.08612,   -28.66,    1.08612,  -148.66,    1.08612,    91.34,          0,     0.00, 4.3757E-012,    53.65,    64.2551,   126.40,    64.2549,     6.40,    64.2545,  -113.60, 0.00102912,   -91.32, 1.88405E-011,    72.44
Transformer.T10001,    1.08635,   -28.66,    1.08635,  -148.66,    1.08634,    91.34,          0,     0.00, 4.46241E-012,    53.68,    64.2701,   126.40,    64.2698,     6.40,    64.2695,  -113.60, 0.00105154,   -91.42, 1.9304E-011,    74.98
Transformer.T10002,    1.08645,   -28.66,    1.08645,  -148.66,    1.08645,    91.34,          0,     0.00, 4.48228E-012,    53.64,    64.2771,   126.40,    64.2768,     6.40,    64.2764,  -113.60, 0.00106198,   -91.47, 1.96293E-011,    71.77
Transformer.T10003,   0.576224,   -32.94,   0.576224,  -152.94,   0.576223,    87.06,          0,     0.00, 4.51631E-012,    53.51,    32.0166,   126.67,    32.0165,     6.67,    32.0163,  -113.33, 0.00052925,   -90.95, 9.63592E-012,    70.71
Transformer.T10004,   0.576224,   -32.94,   0.576224,  -152.94,   0.576223,    87.06,          0,     0.00, 4.51631E-012,    53.51,    32.0166,   126.67,    32.0165,     6.67,    32.0163,  -113.33, 0.00052925,   -90.95, 9.63592E-012,    70.71
Transformer.T10005,    1.08651,   -28.66,    1.08651,  -148.66,    1.08651,    91.34,          0,     0.00, 4.51495E-012,    53.61,    64.2812,   126.40,    64.2809,     6.40,    64.2806,  -113.60, 0.00106815,   -91.50, 2.07122E-011,    72.76
Transformer.T10006,    1.08652,   -28.66,    1.08652,  -148.66,    1.08652,    91.34,          0,     0.00, 4.51781E-012,    53.63,    64.2816,   126.40,    64.2814,     6.40,     64.281,  -113.60, 0.00106881,   -91.50, 1.95621E-011,    70.30
Transformer.T10009,     1.0865,   -28.66,     1.0865,  -148.66,     1.0865,    91.34,          0,     0.00, 4.52353E-012,    53.69,    64.2808,   126.40,    64.2805,     6.40,    64.2801,  -113.60, 0.00106752,   -91.49, 1.83385E-011,    72.69
Transformer.T100091,    0.67745,   -31.53,   0.677451,  -151.53,    0.67745,    88.47,          0,     0.00, 4.50787E-012,    53.65,    38.4472,   126.62,    38.4471,     6.62,    38.4469,  -113.38, 0.000636711,   -91.05, 1.11065E-011,    67.11
Transformer.T1000912,   0.677453,   -31.53,   0.677453,  -151.53,   0.677452,    88.47,          0,     0.00, 4.53768E-012,    53.60,    38.4474,   126.62,    38.4473,     6.62,    38.4471,  -113.38, 0.000636992,   -91.05, 1.13687E-011,    73.74
Line.LINHA200,    30.0168,   -77.29,    30.0135,   162.71,    30.0163,    42.71,          0,     0.00, 0.00540761,   -30.61,    30.0195,   102.71,    30.0163,   -17.29,     30.019,  -137.29,          0,     0.00, 0.00535816,   149.39
Line.LINHA201,    30.0195,   -77.29,    30.0163,   162.71,     30.019,    42.71,          0,     0.00, 0.00535816,   -30.61,    30.0203,   102.71,    30.0171,   -17.29,    30.0198,  -137.29,          0,     0.00, 0.00534333,   149.39
Line.LINHA202,    30.0203,   -77.29,    30.0171,   162.71,    30.0198,    42.71,          0,     0.00, 0.00534333,   -30.61,    30.0211,   102.71,    30.0179,   -17.29,    30.0206,  -137.29,          0,     0.00,  0.0053285,   149.39
Line.LINHA203,    30.0211,   -77.29,    30.0179,   162.71,    30.0206,    42.71,          0,     0.00,  0.0053285,   -30.61,    30.0212,   102.71,     30.018,   -17.29,    30.0208,  -137.29,          0,     0.00, 0.00532652,   149.39
Line.LINHA204,    30.0212,   -77.29,     30.018,   162.71,    30.0208,    42.71,          0,     0.00, 0.00532652,   -30.61,     30.022,   102.71,    30.0188,   -17.29,    30.0216,  -137.29,          0,     0.00, 0.00531169,   149.39
Line.LINHA205,     30.022,   -77.29,    30.0188,   162.71,    30.0216,    42.71,          0,     0.00, 0.00531169,   -30.61,    30.0228,   102.71,    30.0196,   -17.29,    30.0224,  -137.29,          0,     0.00, 0.00529686,   149.39
Line.LINHA206,    30.0228,   -77.29,    30.0196,   162.71,    30.0224,    42.71,          0,     0.00, 0.00529686,   -30.61,    30.0236,   102.71,    30.0205,   -17.29,    30.0232,  -137.29,          0,     0.00, 0.00528203,   149.39
Line.LINHA207,    30.0236,   -77.29,    30.0205,   162.71,    30.0232,    42.71,          0,     0.00, 0.00528203,   -30.61,    30.0244,   102.71,    30.0213,   -17.29,     30.024,  -137.29,          0,     0.00, 0.00526721,   149.39
Line.LINHA208,    30.0244,   -77.29,    30.0213,   162.71,     30.024,    42.71,          0,     0.00, 0.00526721,   -30.61,    30.0252,   102.71,    30.0221,   -17.29,    30.0248,  -137.29,          0,     0.00, 0.00525238,   149.39
Line.LINHA209,    30.0252,   -77.29,    30.0221,   162.71,    30.0248,    42.71,          0,     0.00, 0.00525238,   -30.61,     30.026,   102.71,    30.0229,   -17.29,    30.0256,  -137.29,          0,     0.00, 0.00523756,   149.39
Line.LINHA210,     30.026,   -77.29,    30.0229,   162.71,    30.0256,    42.71,          0,     0.00, 0.00523756,   -30.61,    30.0268,   102.71,    30.0237,   -17.29,    30.0264,  -137.29,          0,     0.00, 0.00522273,   149.39
Line.LINHA211,    30.0268,   -77.29,    30.0237,   162.71,    30.0264,    42.71,          0,     0.00, 0.00522273,   -30.61,    30.0277,   102.71,    30.0245,   -17.29,    30.0272,  -137.29,          0,     0.00, 0.00520791,   149.39
Line.LINHA212,    29.6045,   -78.23,    29.6014,   161.77,    29.6041,    41.77,          0,     0.00, 0.00520791,   -30.61,    29.6053,   101.77,    29.6022,   -18.23,    29.6049,  -138.23,          0,     0.00, 0.00519309,   149.39
Line.LINHA213,     39.089,  -173.31,    39.0891,    66.69,    39.0892,   -53.31,          0,     0.00, 0.000356083,   -30.52,    39.0891,     6.69,    39.0892,  -113.31,    39.0893,   126.69,          0,     0.00, 0.00034126,   149.49
Line.LINHA214,    39.0891,  -173.31,    39.0892,    66.69,    39.0893,   -53.31,          0,     0.00, 0.00034126,   -30.51,    39.0892,     6.69,    39.0893,  -113.31,    39.0894,   126.69,          0,     0.00, 0.000326437,   149.49
Line.LINHA215,    39.0892,  -173.31,    39.0893,    66.69,    39.0894,   -53.31,          0,     0.00, 0.000326437,   -30.51,    39.0893,     6.69,    39.0894,  -113.31,    39.0895,   126.69,          0,     0.00, 0.000311612,   149.49
Line.LINHA216,    39.0893,  -173.31,    39.0894,    66.69,    39.0895,   -53.31,          0,     0.00, 0.000311612,   -30.51,    39.0894,     6.69,    39.0895,  -113.31,    39.0896,   126.69,          0,     0.00, 0.000296785,   149.49
Line.LINHA217,    39.0894,  -173.31,    39.0895,    66.69,    39.0896,   -53.31,          0,     0.00, 0.000296785,   -30.51,    39.0895,     6.69,    39.0896,  -113.31,    39.0897,   126.69,          0,     0.00, 0.000281957,   149.49
Line.LINHA218,     39.618,  -173.85,     39.618,    66.15,    39.6181,   -53.85,          0,     0.00, 0.000281957,   -30.51,    39.6181,     6.15,    39.6181,  -113.85,    39.6182,   126.15,          0,     0.00, 0.000267128,   149.50
Line.LINHA219,    39.6181,  -173.85,    39.6181,    66.15,    39.6182,   -53.85,          0,     0.00, 0.000267128,   -30.50,    39.6182,     6.15,    39.6182,  -113.85,    39.6183,   126.15,          0,     0.00, 0.000252297,   149.50
